T1094 224:038 SEGGER J-Link V6.50b Log File (0000ms, 1481ms total)
T1094 224:038 DLL Compiled: Sep  6 2019 17:57:35 (0000ms, 1481ms total)
T1094 224:038 Logging started @ 2020-08-15 08:32 (0000ms, 1481ms total)
T1094 224:038 JLINK_SetWarnOutHandler(...) (0000ms, 1481ms total)
T1094 224:038 JLINK_OpenEx(...)
Firmware: J-Link V9 compiled May 17 2019 09:50:41
Hardware: V9.40
S/N: 59400616
Feature(s): RDI, FlashBP, FlashDL, JFlash, GDB
TELNET listener socket opened on port 19021WEBSRV 
Starting webserver (0046ms, 1527ms total)
T1094 224:038 WEBSRV Webserver running on local port 19080 (0047ms, 1528ms total)
T1094 224:038   returns O.K. (0047ms, 1528ms total)
T1094 224:085 JLINK_GetEmuCaps()  returns 0xB9FF7BBF (0000ms, 1528ms total)
T1094 224:085 JLINK_TIF_GetAvailable(...) (0000ms, 1528ms total)
T1094 224:085 JLINK_SetErrorOutHandler(...) (0000ms, 1528ms total)
T1094 224:085 JLINK_ExecCommand("ProjectFile = "C:\Users\su\Desktop\usb-can\fw\MDK-ARM\JLinkSettings.ini"", ...).   returns 0x00 (0003ms, 1531ms total)
T1094 224:092 JLINK_ExecCommand("Device = STM32F105RC", ...). Device "STM32F105RC" selected.  returns 0x00 (0005ms, 1536ms total)
T1094 224:097 JLINK_ExecCommand("DisableConnectionTimeout", ...).   returns 0x01 (0000ms, 1536ms total)
T1094 224:097 JLINK_GetHardwareVersion()  returns 0x16F30 (0000ms, 1536ms total)
T1094 224:097 JLINK_GetDLLVersion()  returns 65002 (0000ms, 1536ms total)
T1094 224:097 JLINK_GetFirmwareString(...) (0000ms, 1536ms total)
T1094 224:103 JLINK_GetDLLVersion()  returns 65002 (0000ms, 1536ms total)
T1094 224:103 JLINK_GetCompileDateTime() (0000ms, 1536ms total)
T1094 224:105 JLINK_GetFirmwareString(...) (0002ms, 1538ms total)
T1094 224:109 JLINK_GetHardwareVersion()  returns 0x16F30 (0000ms, 1538ms total)
T1094 224:118 JLINK_TIF_Select(JLINKARM_TIF_SWD)  returns 0x00 (0001ms, 1539ms total)
T1094 224:119 JLINK_SetSpeed(5000) (0000ms, 1539ms total)
T1094 224:119 JLINK_GetId() >0x10B TIF>Found SW-DP with ID 0x1BA01477 >0x0D TIF> >0x28 TIF> >0x0D TIF> >0x28 TIF> >0x0D TIF> >0x28 TIF> >0x0D TIF> >0x28 TIF> >0x0D TIF> >0x21 TIF> >0x0D TIF> >0x28 TIF> >0x0D TIF> >0x28 TIF> >0x0D TIF> >0x28 TIF> >0x0D TIF> >0x21 TIF> >0x0D TIF> >0x21 TIF> >0x0D TIF> >0x28 TIF> >0x0D TIF> >0x21 TIF> >0x0D TIF> >0x21 TIF> >0x0D TIF> >0x28 TIF> >0x0D TIF> >0x28 TIF> >0x0D TIF> >0x28 TIF> >0x0D TIF> >0x21 TIF> >0x0D TIF> >0x21 TIF> >0x0D TIF> >0x28 TIF> >0x0D TIF> >0x21 TIF>
 >0x0D TIF> >0x21 TIF> >0x0D TIF> >0x28 TIF> >0x0D TIF> >0x21 TIF> >0x0D TIF> >0x21 TIF> >0x0D TIF> >0x28 TIF> >0x0D TIF> >0x21 TIF> >0x0D TIF> >0x30 TIF> >0x0D TIF> >0x21 TIF> >0x0D TIF> >0x28 TIF> >0x0D TIF> >0x21 TIF> >0x0D TIF> >0x30 TIF> >0x0D TIF> >0x21 TIF>Active read protected STM32 device detected.
This could cause problems during flash download.
Note: Unsecuring will trigger a mass erase of the internal flash. (0017ms, 1556ms total)
T1094 224:119 Executing default behavior previously saved in the registry.Device will be unsecured now. >0x0D TIF> >0x28 TIF> >0x0D TIF> >0x28 TIF> >0x0D TIF> >0x28 TIF> >0x0D TIF> >0x28 TIF> >0x0D TIF> >0x28 TIF> >0x0D TIF> >0x28 TIF> >0x0D TIF> >0x28 TIF> >0x0D TIF> >0x28 TIF> >0x0D TIF> >0x28 TIF> >0x0D TIF> >0x28 TIF> >0x0D TIF> >0x28 TIF> >0x0D TIF> >0x28 TIF> >0x0D TIF> >0x28 TIF> >0x0D TIF> >0x21 TIF> >0x0D TIF> >0x21 TIF> >0x0D TIF> >0x28 TIF> >0x0D TIF> >0x21 TIF> >0x0D TIF> >0x21 TIF>
 >0x0D TIF> >0x28 TIF> >0x0D TIF> >0x21 TIF> >0x0D TIF> >0x21 TIF> >0x0D TIF> >0x28 TIF> >0x0D TIF> >0x21 TIF> >0x0D TIF> >0x21 TIF> >0x0D TIF> >0x28 TIF> >0x0D TIF> >0x21 TIF> >0x0D TIF> >0x21 TIF> >0x0D TIF> >0x28 TIF> >0x0D TIF> >0x21 TIF> >0x0D TIF> >0x21 TIF> >0x0D TIF> >0x28 TIF> >0x0D TIF> >0x21 TIF> >0x0D TIF> >0x21 TIF> >0x0D TIF> >0x28 TIF> >0x0D TIF> >0x21 TIF> >0x0D TIF> >0x21 TIF> >0x0D TIF> >0x28 TIF> >0x0D TIF> >0x21 TIF> >0x0D TIF> >0x21 TIF> >0x0D TIF> >0x28 TIF> >0x0D TIF> >0x21 TIF>
 >0x0D TIF> >0x21 TIF> >0x0D TIF> >0x28 TIF> >0x0D TIF> >0x21 TIF> >0x0D TIF> >0x21 TIF> >0x0D TIF> >0x28 TIF> >0x0D TIF> >0x21 TIF> >0x0D TIF> >0x21 TIF> >0x0D TIF> >0x28 TIF> >0x0D TIF> >0x21 TIF> >0x0D TIF> >0x21 TIF> >0x0D TIF> >0x28 TIF> >0x0D TIF> >0x21 TIF> >0x0D TIF> >0x21 TIF> >0x0D TIF> >0x28 TIF> >0x0D TIF> >0x21 TIF> >0x0D TIF> >0x21 TIF> >0x0D TIF> >0x28 TIF> >0x0D TIF> >0x21 TIF> >0x0D TIF> >0x21 TIF> >0x0D TIF> >0x28 TIF> >0x0D TIF> >0x21 TIF> >0x0D TIF> >0x21 TIF> >0x0D TIF> >0x28 TIF>
 >0x0D TIF> >0x21 TIF> >0x0D TIF> >0x21 TIF> >0x0D TIF> >0x28 TIF> >0x0D TIF> >0x21 TIF> >0x0D TIF> >0x21 TIF> >0x0D TIF> >0x28 TIF> >0x0D TIF> >0x21 TIF> >0x0D TIF> >0x21 TIF> >0x0D TIF> >0x28 TIF> >0x0D TIF> >0x21 TIF> >0x0D TIF> >0x21 TIF> >0x0D TIF> >0x28 TIF> >0x0D TIF> >0x21 TIF> >0x0D TIF> >0x21 TIF> >0x0D TIF> >0x28 TIF> >0x0D TIF> >0x21 TIF> >0x0D TIF> >0x21 TIF> >0x0D TIF> >0x28 TIF> >0x0D TIF> >0x21 TIF> >0x0D TIF> >0x21 TIF> >0x0D TIF> >0x28 TIF> >0x0D TIF> >0x21 TIF> >0x0D TIF> >0x21 TIF>
 >0x0D TIF> >0x28 TIF> >0x0D TIF> >0x28 TIF> >0x0D TIF> >0x28 TIF> >0x0D TIF> >0x21 TIF> >0x0D TIF> >0x30 TIF> >0x0D TIF> >0x21 TIF> >0x0D TIF> >0x28 TIF> >0x0D TIF> >0x28 TIF> >0x0D TIF> >0x28 TIF> >0x0D TIF> >0x28 TIF> >0x0D TIF> >0x28 TIF> >0x0D TIF> >0x21 TIF> >0x0D TIF> >0x21 TIF> >0x0D TIF> >0x28 TIF> >0x0D TIF> >0x21 TIF> >0x0D TIF> >0x21 TIF> >0x0D TIF> >0x28 TIF> >0x0D TIF> >0x21 TIF> >0x0D TIF> >0x21 TIF> >0x0D TIF> >0x28 TIF> >0x0D TIF> >0x21 TIF> >0x0D TIF> >0x21 TIF> >0x0D TIF> >0x28 TIF>
 >0x0D TIF> >0x21 TIF> >0x0D TIF> >0x21 TIF> >0x0D TIF> >0x28 TIF> >0x0D TIF> >0x21 TIF> >0x0D TIF> >0x21 TIF> >0x0D TIF> >0x28 TIF> >0x0D TIF> >0x21 TIF> >0x0D TIF> >0x21 TIF> >0x0D TIF> >0x28 TIF> >0x0D TIF> >0x21 TIF> >0x0D TIF> >0x21 TIF> >0x0D TIF> >0x28 TIF> >0x0D TIF> >0x21 TIF> >0x0D TIF> >0x21 TIF> >0x0D TIF> >0x28 TIF> >0x0D TIF> >0x21 TIF> >0x0D TIF> >0x21 TIF> >0x0D TIF> >0x28 TIF> >0x0D TIF> >0x21 TIF> >0x0D TIF> >0x21 TIF> >0x0D TIF> >0x28 TIF> >0x0D TIF> >0x21 TIF> >0x0D TIF> >0x21 TIF>
 >0x0D TIF> >0x28 TIF> >0x0D TIF> >0x21 TIF> >0x0D TIF> >0x21 TIF> >0x0D TIF> >0x28 TIF> >0x0D TIF> >0x21 TIF> >0x0D TIF> >0x21 TIF> >0x0D TIF> >0x28 TIF> >0x0D TIF> >0x21 TIF> >0x0D TIF> >0x21 TIF> >0x0D TIF> >0x28 TIF> >0x0D TIF> >0x21 TIF> >0x0D TIF> >0x21 TIF> >0x0D TIF> >0x28 TIF> >0x0D TIF> >0x21 TIF> >0x0D TIF> >0x21 TIF> >0x0D TIF> >0x28 TIF> >0x0D TIF> >0x21 TIF> >0x0D TIF> >0x21 TIF> >0x0D TIF> >0x28 TIF> >0x0D TIF> >0x21 TIF> >0x0D TIF> >0x21 TIF> >0x0D TIF> >0x28 TIF> >0x0D TIF> >0x21 TIF>
 >0x0D TIF> >0x21 TIF> >0x0D TIF> >0x28 TIF> >0x0D TIF> >0x21 TIF> >0x0D TIF> >0x21 TIF> >0x0D TIF> >0x28 TIF> >0x0D TIF> >0x21 TIF> >0x0D TIF> >0x21 TIF> >0x0D TIF> >0x28 TIF> >0x0D TIF> >0x21 TIF> >0x0D TIF> >0x21 TIF> >0x0D TIF> >0x28 TIF> >0x0D TIF> >0x21 TIF> >0x0D TIF> >0x21 TIF> >0x0D TIF> >0x28 TIF> >0x0D TIF> >0x21 TIF> >0x0D TIF> >0x21 TIF> >0x0D TIF> >0x28 TIF> >0x0D TIF> >0x28 TIF> >0x0D TIF> >0x28 TIF> >0x0D TIF> >0x21 TIF> >0x0D TIF> >0x21 TIF> >0x10B TIF>Found SW-DP with ID 0x1BA01477
 >0x0D TIF> >0x28 TIF> >0x0D TIF> >0x28 TIF> >0x0D TIF> >0x28 TIF> >0x0D TIF> >0x28 TIF> >0x0D TIF> >0x21 TIF> >0x0D TIF> >0x28 TIF>Scanning AP map to find all available APs >0x0D TIF> >0x28 TIF> >0x0D TIF> >0x21 TIF> >0x0D TIF> >0x21 TIF> >0x0D TIF> >0x28 TIF> >0x0D TIF> >0x21 TIF> >0x0D TIF> >0x21 TIF>AP[1]: Stopped AP scan as end of AP map has been reachedAP[0]: AHB-AP (IDR: 0x14770011)Iterating through AP map to find AHB-AP to use >0x42 TIF> >0x28 TIF> >0x0D TIF> >0x28 TIF> >0x0D TIF> >0x21 TIF>
 >0x0D TIF> >0x21 TIF> >0x42 TIF> >0x28 TIF> >0x0D TIF> >0x28 TIF> >0x0D TIF> >0x28 TIF> >0x0D TIF> >0x21 TIF> >0x0D TIF> >0x21 TIF>AP[0]: Core foundAP[0]: AHB-AP ROM base: 0xE00FF000 >0x0D TIF> >0x28 TIF> >0x0D TIF> >0x28 TIF> >0x0D TIF> >0x28 TIF> >0x0D TIF> >0x21 TIF> >0x0D TIF> >0x21 TIF>CPUID register: 0x411FC231. Implementer code: 0x41 (ARM)Found Cortex-M3 r1p1, Little endian. -- Max. mem block: 0x0000CBB8 -- CPU_ReadMem(4 bytes @ 0xE000EDF0) -- CPU_WriteMem(4 bytes @ 0xE000EDF0)
 -- CPU_ReadMem(4 bytes @ 0xE0002000)FPUnit: 6 code (BP) slots and 2 literal slots -- CPU_ReadMem(4 bytes @ 0xE000EDFC) -- CPU_WriteMem(4 bytes @ 0xE000EDFC) -- CPU_ReadMem(4 bytes @ 0xE0001000) -- CPU_WriteMem(4 bytes @ 0xE0001000) -- CPU_ReadMem(4 bytes @ 0xE000ED88) -- CPU_WriteMem(4 bytes @ 0xE000ED88) -- CPU_ReadMem(4 bytes @ 0xE000ED88) -- CPU_WriteMem(4 bytes @ 0xE000ED88)CoreSight components:ROMTbl[0] @ E00FF000 -- CPU_ReadMem(16 bytes @ 0xE00FF000) -- CPU_ReadMem(16 bytes @ 0xE000EFF0)
 -- CPU_ReadMem(16 bytes @ 0xE000EFE0)ROMTbl[0][0]: E000E000, CID: B105E00D, PID: 001BB000 SCS -- CPU_ReadMem(16 bytes @ 0xE0001FF0) -- CPU_ReadMem(16 bytes @ 0xE0001FE0)ROMTbl[0][1]: E0001000, CID: B105E00D, PID: 001BB002 DWT -- CPU_ReadMem(16 bytes @ 0xE0002FF0) -- CPU_ReadMem(16 bytes @ 0xE0002FE0)ROMTbl[0][2]: E0002000, CID: B105E00D, PID: 000BB003 FPB -- CPU_ReadMem(16 bytes @ 0xE0000FF0) -- CPU_ReadMem(16 bytes @ 0xE0000FE0)ROMTbl[0][3]: E0000000, CID: B105E00D, PID: 001BB001 ITM
 -- CPU_ReadMem(16 bytes @ 0xE00FF010) -- CPU_ReadMem(16 bytes @ 0xE0040FF0) -- CPU_ReadMem(16 bytes @ 0xE0040FE0)ROMTbl[0][4]: E0040000, CID: B105900D, PID: 001BB923 TPIU-Lite -- CPU_ReadMem(16 bytes @ 0xE0041FF0) -- CPU_ReadMem(16 bytes @ 0xE0041FE0)ROMTbl[0][5]: E0041000, CID: B105900D, PID: 101BB924 ETM-M3 >0x0D TIF> >0x21 TIF>  returns 0x1BA01477 (0422ms, 1961ms total)
T1094 224:541 JLINK_GetDLLVersion()  returns 65002 (0000ms, 1961ms total)
T1094 224:541 JLINK_CORE_GetFound()  returns 0x30000FF (0000ms, 1961ms total)
T1094 224:541 JLINK_GetDebugInfo(0x100 = JLINKARM_ROM_TABLE_ADDR_INDEX) -- Value=0xE00FF000  returns 0x00 (0000ms, 1961ms total)
T1094 224:546 JLINK_GetDebugInfo(0x100 = JLINKARM_ROM_TABLE_ADDR_INDEX) -- Value=0xE00FF000  returns 0x00 (0000ms, 1961ms total)
T1094 224:546 JLINK_GetDebugInfo(0x101 = JLINKARM_DEBUG_INFO_ETM_ADDR_INDEX) -- Value=0xE0041000  returns 0x00 (0000ms, 1961ms total)
T1094 224:546 JLINK_ReadMemEx(0xE0041FD0, 0x0020 Bytes, ..., Flags = 0x02000004) -- CPU_ReadMem(32 bytes @ 0xE0041FD0) - Data: 04 00 00 00 00 00 00 00 00 00 00 00 00 00 00 00 ...  returns 0x20 (0000ms, 1961ms total)
T1094 224:546 JLINK_GetDebugInfo(0x102 = JLINKARM_DEBUG_INFO_MTB_ADDR_INDEX) -- Value=0x00000000  returns 0x00 (0000ms, 1961ms total)
T1094 224:546 JLINK_GetDebugInfo(0x103 = JLINKARM_DEBUG_INFO_TPIU_ADDR_INDEX) -- Value=0xE0040000  returns 0x00 (0000ms, 1961ms total)
T1094 224:546 JLINK_GetDebugInfo(0x104 = JLINKARM_DEBUG_INFO_ITM_ADDR_INDEX) -- Value=0xE0000000  returns 0x00 (0000ms, 1961ms total)
T1094 224:546 JLINK_GetDebugInfo(0x105 = JLINKARM_DEBUG_INFO_DWT_ADDR_INDEX) -- Value=0xE0001000  returns 0x00 (0001ms, 1962ms total)
T1094 224:547 JLINK_GetDebugInfo(0x106 = JLINKARM_DEBUG_INFO_FPB_ADDR_INDEX) -- Value=0xE0002000  returns 0x00 (0000ms, 1962ms total)
T1094 224:547 JLINK_GetDebugInfo(0x107 = JLINKARM_DEBUG_INFO_NVIC_ADDR_INDEX) -- Value=0xE000E000  returns 0x00 (0000ms, 1962ms total)
T1094 224:547 JLINK_GetDebugInfo(0x10C = JLINKARM_DEBUG_INFO_DBG_ADDR_INDEX) -- Value=0xE000EDF0  returns 0x00 (0000ms, 1962ms total)
T1094 224:547 JLINK_GetDebugInfo(0x01 = Unknown) -- Value=0x00000000  returns 0x00 (0000ms, 1962ms total)
T1094 224:547 JLINK_ReadMemU32(0xE000ED00, 0x0001 Items, ...) -- CPU_ReadMem(4 bytes @ 0xE000ED00) - Data: 31 C2 1F 41  returns 1 (0000ms, 1962ms total)
T1094 224:547 JLINK_GetDebugInfo(0x10F = JLINKARM_DEBUG_INFO_HAS_CORTEX_M_SECURITY_EXT_INDEX) -- Value=0x00000000  returns 0x00 (0000ms, 1962ms total)
T1094 224:547 JLINK_SetResetType(JLINKARM_CM3_RESET_TYPE_NORMAL)  returns JLINKARM_CM3_RESET_TYPE_NORMAL (0000ms, 1962ms total)
T1094 224:547 JLINK_Reset() -- CPU is running -- CPU_WriteMem(4 bytes @ 0xE000EDF0) -- CPU is running -- CPU_WriteMem(4 bytes @ 0xE000EDFC)Reset: Halt core after reset via DEMCR.VC_CORERESET. >0x35 TIF>Reset: Reset device via AIRCR.SYSRESETREQ. -- CPU is running -- CPU_WriteMem(4 bytes @ 0xE000ED0C) >0x0D TIF> >0x28 TIF> -- CPU_ReadMem(4 bytes @ 0xE000EDF0) -- CPU_ReadMem(4 bytes @ 0xE000EDF0) -- CPU is running -- CPU_WriteMem(4 bytes @ 0xE000EDF0) -- CPU is running -- CPU_WriteMem(4 bytes @ 0xE000EDFC)
 -- CPU_ReadMem(4 bytes @ 0xE000EDF0) -- CPU_WriteMem(4 bytes @ 0xE0002000) -- CPU_ReadMem(4 bytes @ 0xE000EDFC) -- CPU_ReadMem(4 bytes @ 0xE0001000) (0071ms, 2033ms total)
T1094 224:619 JLINK_Halt()  returns 0x00 (0000ms, 2033ms total)
T1094 224:619 JLINK_ReadMemU32(0xE000EDF0, 0x0001 Items, ...) -- CPU_ReadMem(4 bytes @ 0xE000EDF0) - Data: 03 00 03 00  returns 1 (0000ms, 2033ms total)
T1094 224:619 JLINK_WriteU32(0xE000EDF0, 0xA05F0003) -- CPU_WriteMem(4 bytes @ 0xE000EDF0)  returns 0 (0000ms, 2033ms total)
T1094 224:619 JLINK_WriteU32(0xE000EDFC, 0x01000000) -- CPU_WriteMem(4 bytes @ 0xE000EDFC)  returns 0 (0000ms, 2033ms total)
T1094 224:629 JLINK_GetHWStatus(...)  returns 0x00 (0001ms, 2034ms total)
T1094 224:637 JLINK_GetNumBPUnits(Type = 0xFFFFFF00)  returns 0x06 (0000ms, 2034ms total)
T1094 224:637 JLINK_GetNumBPUnits(Type = 0xF0)  returns 0x2000 (0000ms, 2034ms total)
T1094 224:637 JLINK_GetNumWPUnits()  returns 0x04 (0000ms, 2034ms total)
T1094 224:643 JLINK_GetSpeed()  returns 0xFA0 (0000ms, 2034ms total)
T1094 224:648 JLINK_ReadMemU32(0xE000E004, 0x0001 Items, ...) -- CPU_ReadMem(4 bytes @ 0xE000E004) - Data: 02 00 00 00  returns 1 (0000ms, 2034ms total)
T1094 224:648 JLINK_ReadMemU32(0xE000E004, 0x0001 Items, ...) -- CPU_ReadMem(4 bytes @ 0xE000E004) - Data: 02 00 00 00  returns 1 (0001ms, 2035ms total)
T1094 224:649 JLINK_WriteMemEx(0xE0001000, 0x001C Bytes, ..., Flags = 0x02000004) - Data: 01 00 00 00 00 00 00 00 00 00 00 00 00 00 00 00 ... -- CPU_WriteMem(28 bytes @ 0xE0001000)  returns 0x1C (0000ms, 2035ms total)
T1094 224:649 JLINK_Halt()  returns 0x00 (0000ms, 2035ms total)
T1094 224:650 JLINK_IsHalted()  returns TRUE (0000ms, 2035ms total)
T1094 224:652 JLINK_WriteMem(0x20000000, 0x0164 Bytes, ...) - Data: 00 BE 0A E0 0D 78 2D 06 68 40 08 24 40 00 00 D3 ... -- CPU_WriteMem(356 bytes @ 0x20000000)  returns 0x164 (0002ms, 2037ms total)
T1094 224:654 JLINK_WriteReg(R0, 0x08000000)  returns 0x00 (0000ms, 2037ms total)
T1094 224:654 JLINK_WriteReg(R1, 0x044AA200)  returns 0x00 (0001ms, 2038ms total)
T1094 224:655 JLINK_WriteReg(R2, 0x00000001)  returns 0x00 (0000ms, 2038ms total)
T1094 224:655 JLINK_WriteReg(R3, 0x00000000)  returns 0x00 (0000ms, 2038ms total)
T1094 224:655 JLINK_WriteReg(R4, 0x00000000)  returns 0x00 (0000ms, 2038ms total)
T1094 224:655 JLINK_WriteReg(R5, 0x00000000)  returns 0x00 (0000ms, 2038ms total)
T1094 224:655 JLINK_WriteReg(R6, 0x00000000)  returns 0x00 (0000ms, 2038ms total)
T1094 224:655 JLINK_WriteReg(R7, 0x00000000)  returns 0x00 (0000ms, 2038ms total)
T1094 224:655 JLINK_WriteReg(R8, 0x00000000)  returns 0x00 (0000ms, 2038ms total)
T1094 224:655 JLINK_WriteReg(R9, 0x20000160)  returns 0x00 (0000ms, 2038ms total)
T1094 224:655 JLINK_WriteReg(R10, 0x00000000)  returns 0x00 (0000ms, 2038ms total)
T1094 224:655 JLINK_WriteReg(R11, 0x00000000)  returns 0x00 (0000ms, 2038ms total)
T1094 224:655 JLINK_WriteReg(R12, 0x00000000)  returns 0x00 (0000ms, 2038ms total)
T1094 224:655 JLINK_WriteReg(R13 (SP), 0x20001000)  returns 0x00 (0000ms, 2038ms total)
T1094 224:655 JLINK_WriteReg(R14, 0x20000001)  returns 0x00 (0000ms, 2038ms total)
T1094 224:655 JLINK_WriteReg(R15 (PC), 0x20000038)  returns 0x00 (0000ms, 2038ms total)
T1094 224:655 JLINK_WriteReg(XPSR, 0x01000000)  returns 0x00 (0000ms, 2038ms total)
T1094 224:655 JLINK_WriteReg(MSP, 0x20001000)  returns 0x00 (0000ms, 2038ms total)
T1094 224:655 JLINK_WriteReg(PSP, 0x20001000)  returns 0x00 (0000ms, 2038ms total)
T1094 224:655 JLINK_WriteReg(CFBP, 0x00000000)  returns 0x00 (0000ms, 2038ms total)
T1094 224:655 JLINK_SetBPEx(Addr = 0x20000000, Type = 0xFFFFFFF2) -- CPU_ReadMem(2 bytes @ 0x20000000)  returns 0x00000001 (0000ms, 2038ms total)
T1094 224:655 JLINK_Go() -- CPU_WriteMem(2 bytes @ 0x20000000) -- CPU_ReadMem(4 bytes @ 0xE0001000) -- CPU_WriteMem(4 bytes @ 0xE0002008) -- CPU_WriteMem(4 bytes @ 0xE000200C) -- CPU_WriteMem(4 bytes @ 0xE0002010) -- CPU_WriteMem(4 bytes @ 0xE0002014) -- CPU_WriteMem(4 bytes @ 0xE0002018) -- CPU_WriteMem(4 bytes @ 0xE000201C) -- CPU_WriteMem(4 bytes @ 0xE0001004) (0004ms, 2042ms total)
T1094 224:659 JLINK_IsHalted() -- CPU_ReadMem(2 bytes @ 0x20000000)  returns TRUE (0002ms, 2044ms total)
T1094 224:661 JLINK_ReadReg(R15 (PC))  returns 0x20000000 (0000ms, 2042ms total)
T1094 224:661 JLINK_ClrBPEx(BPHandle = 0x00000001)  returns 0x00 (0000ms, 2042ms total)
T1094 224:661 JLINK_ReadReg(R0)  returns 0x00000000 (0000ms, 2042ms total)
T1094 224:661 JLINK_WriteReg(R0, 0x08000000)  returns 0x00 (0001ms, 2043ms total)
T1094 224:662 JLINK_WriteReg(R1, 0x044AA200)  returns 0x00 (0000ms, 2043ms total)
T1094 224:662 JLINK_WriteReg(R2, 0x00000001)  returns 0x00 (0000ms, 2043ms total)
T1094 224:662 JLINK_WriteReg(R3, 0x00000000)  returns 0x00 (0000ms, 2043ms total)
T1094 224:662 JLINK_WriteReg(R4, 0x00000000)  returns 0x00 (0000ms, 2043ms total)
T1094 224:662 JLINK_WriteReg(R5, 0x00000000)  returns 0x00 (0000ms, 2043ms total)
T1094 224:662 JLINK_WriteReg(R6, 0x00000000)  returns 0x00 (0000ms, 2043ms total)
T1094 224:662 JLINK_WriteReg(R7, 0x00000000)  returns 0x00 (0000ms, 2043ms total)
T1094 224:662 JLINK_WriteReg(R8, 0x00000000)  returns 0x00 (0000ms, 2043ms total)
T1094 224:662 JLINK_WriteReg(R9, 0x20000160)  returns 0x00 (0000ms, 2043ms total)
T1094 224:662 JLINK_WriteReg(R10, 0x00000000)  returns 0x00 (0000ms, 2043ms total)
T1094 224:662 JLINK_WriteReg(R11, 0x00000000)  returns 0x00 (0000ms, 2043ms total)
T1094 224:662 JLINK_WriteReg(R12, 0x00000000)  returns 0x00 (0000ms, 2043ms total)
T1094 224:662 JLINK_WriteReg(R13 (SP), 0x20001000)  returns 0x00 (0000ms, 2043ms total)
T1094 224:662 JLINK_WriteReg(R14, 0x20000001)  returns 0x00 (0000ms, 2043ms total)
T1094 224:662 JLINK_WriteReg(R15 (PC), 0x2000007C)  returns 0x00 (0000ms, 2043ms total)
T1094 224:662 JLINK_WriteReg(XPSR, 0x01000000)  returns 0x00 (0000ms, 2043ms total)
T1094 224:662 JLINK_WriteReg(MSP, 0x20001000)  returns 0x00 (0000ms, 2043ms total)
T1094 224:662 JLINK_WriteReg(PSP, 0x20001000)  returns 0x00 (0000ms, 2043ms total)
T1094 224:662 JLINK_WriteReg(CFBP, 0x00000000)  returns 0x00 (0000ms, 2043ms total)
T1094 224:662 JLINK_SetBPEx(Addr = 0x20000000, Type = 0xFFFFFFF2)  returns 0x00000002 (0000ms, 2043ms total)
T1094 224:662 JLINK_Go() -- CPU_ReadMem(4 bytes @ 0xE0001000) (0002ms, 2045ms total)
T1094 224:664 JLINK_IsHalted()  returns FALSE (0000ms, 2045ms total)
T1094 224:712 JLINK_IsHalted() -- CPU_ReadMem(2 bytes @ 0x20000000)  returns TRUE (0002ms, 2047ms total)
T1094 224:714 JLINK_ReadReg(R15 (PC))  returns 0x20000000 (0000ms, 2045ms total)
T1094 224:714 JLINK_ClrBPEx(BPHandle = 0x00000002)  returns 0x00 (0000ms, 2045ms total)
T1094 224:714 JLINK_ReadReg(R0)  returns 0x00000000 (0000ms, 2045ms total)
T1094 224:765 JLINK_WriteReg(R0, 0x00000001)  returns 0x00 (0000ms, 2045ms total)
T1094 224:765 JLINK_WriteReg(R1, 0x044AA200)  returns 0x00 (0000ms, 2045ms total)
T1094 224:766 JLINK_WriteReg(R2, 0x00000001)  returns 0x00 (0000ms, 2046ms total)
T1094 224:766 JLINK_WriteReg(R3, 0x00000000)  returns 0x00 (0000ms, 2046ms total)
T1094 224:766 JLINK_WriteReg(R4, 0x00000000)  returns 0x00 (0000ms, 2046ms total)
T1094 224:766 JLINK_WriteReg(R5, 0x00000000)  returns 0x00 (0000ms, 2046ms total)
T1094 224:766 JLINK_WriteReg(R6, 0x00000000)  returns 0x00 (0000ms, 2046ms total)
T1094 224:766 JLINK_WriteReg(R7, 0x00000000)  returns 0x00 (0000ms, 2046ms total)
T1094 224:766 JLINK_WriteReg(R8, 0x00000000)  returns 0x00 (0000ms, 2046ms total)
T1094 224:766 JLINK_WriteReg(R9, 0x20000160)  returns 0x00 (0000ms, 2046ms total)
T1094 224:766 JLINK_WriteReg(R10, 0x00000000)  returns 0x00 (0000ms, 2046ms total)
T1094 224:766 JLINK_WriteReg(R11, 0x00000000)  returns 0x00 (0000ms, 2046ms total)
T1094 224:766 JLINK_WriteReg(R12, 0x00000000)  returns 0x00 (0000ms, 2046ms total)
T1094 224:766 JLINK_WriteReg(R13 (SP), 0x20001000)  returns 0x00 (0000ms, 2046ms total)
T1094 224:766 JLINK_WriteReg(R14, 0x20000001)  returns 0x00 (0000ms, 2046ms total)
T1094 224:766 JLINK_WriteReg(R15 (PC), 0x2000006A)  returns 0x00 (0000ms, 2046ms total)
T1094 224:766 JLINK_WriteReg(XPSR, 0x01000000)  returns 0x00 (0000ms, 2046ms total)
T1094 224:766 JLINK_WriteReg(MSP, 0x20001000)  returns 0x00 (0000ms, 2046ms total)
T1094 224:766 JLINK_WriteReg(PSP, 0x20001000)  returns 0x00 (0000ms, 2046ms total)
T1094 224:766 JLINK_WriteReg(CFBP, 0x00000000)  returns 0x00 (0000ms, 2046ms total)
T1094 224:766 JLINK_SetBPEx(Addr = 0x20000000, Type = 0xFFFFFFF2)  returns 0x00000003 (0000ms, 2046ms total)
T1094 224:766 JLINK_Go() -- CPU_ReadMem(4 bytes @ 0xE0001000) (0003ms, 2049ms total)
T1094 224:769 JLINK_IsHalted() -- CPU_ReadMem(2 bytes @ 0x20000000)  returns TRUE (0003ms, 2052ms total)
T1094 224:772 JLINK_ReadReg(R15 (PC))  returns 0x20000000 (0000ms, 2049ms total)
T1094 224:772 JLINK_ClrBPEx(BPHandle = 0x00000003)  returns 0x00 (0000ms, 2049ms total)
T1094 224:772 JLINK_ReadReg(R0)  returns 0x00000000 (0000ms, 2049ms total)
T1094 224:790 JLINK_WriteMem(0x20000000, 0x0164 Bytes, ...) - Data: 00 BE 0A E0 0D 78 2D 06 68 40 08 24 40 00 00 D3 ... -- CPU_WriteMem(356 bytes @ 0x20000000)  returns 0x164 (0002ms, 2051ms total)
T1094 224:793 JLINK_WriteReg(R0, 0x08000000)  returns 0x00 (0000ms, 2051ms total)
T1094 224:793 JLINK_WriteReg(R1, 0x044AA200)  returns 0x00 (0000ms, 2051ms total)
T1094 224:793 JLINK_WriteReg(R2, 0x00000002)  returns 0x00 (0000ms, 2051ms total)
T1094 224:793 JLINK_WriteReg(R3, 0x00000000)  returns 0x00 (0000ms, 2051ms total)
T1094 224:793 JLINK_WriteReg(R4, 0x00000000)  returns 0x00 (0000ms, 2051ms total)
T1094 224:793 JLINK_WriteReg(R5, 0x00000000)  returns 0x00 (0000ms, 2051ms total)
T1094 224:793 JLINK_WriteReg(R6, 0x00000000)  returns 0x00 (0000ms, 2051ms total)
T1094 224:793 JLINK_WriteReg(R7, 0x00000000)  returns 0x00 (0000ms, 2051ms total)
T1094 224:793 JLINK_WriteReg(R8, 0x00000000)  returns 0x00 (0000ms, 2051ms total)
T1094 224:793 JLINK_WriteReg(R9, 0x20000160)  returns 0x00 (0000ms, 2051ms total)
T1094 224:793 JLINK_WriteReg(R10, 0x00000000)  returns 0x00 (0001ms, 2052ms total)
T1094 224:794 JLINK_WriteReg(R11, 0x00000000)  returns 0x00 (0000ms, 2052ms total)
T1094 224:794 JLINK_WriteReg(R12, 0x00000000)  returns 0x00 (0000ms, 2052ms total)
T1094 224:794 JLINK_WriteReg(R13 (SP), 0x20001000)  returns 0x00 (0000ms, 2052ms total)
T1094 224:794 JLINK_WriteReg(R14, 0x20000001)  returns 0x00 (0000ms, 2052ms total)
T1094 224:794 JLINK_WriteReg(R15 (PC), 0x20000038)  returns 0x00 (0000ms, 2052ms total)
T1094 224:794 JLINK_WriteReg(XPSR, 0x01000000)  returns 0x00 (0000ms, 2052ms total)
T1094 224:794 JLINK_WriteReg(MSP, 0x20001000)  returns 0x00 (0000ms, 2052ms total)
T1094 224:794 JLINK_WriteReg(PSP, 0x20001000)  returns 0x00 (0000ms, 2052ms total)
T1094 224:794 JLINK_WriteReg(CFBP, 0x00000000)  returns 0x00 (0000ms, 2052ms total)
T1094 224:794 JLINK_SetBPEx(Addr = 0x20000000, Type = 0xFFFFFFF2) -- CPU_ReadMem(2 bytes @ 0x20000000)  returns 0x00000004 (0001ms, 2053ms total)
T1094 224:795 JLINK_Go() -- CPU_WriteMem(2 bytes @ 0x20000000) -- CPU_ReadMem(4 bytes @ 0xE0001000) (0003ms, 2056ms total)
T1094 224:798 JLINK_IsHalted() -- CPU_ReadMem(2 bytes @ 0x20000000)  returns TRUE (0003ms, 2059ms total)
T1094 224:802 JLINK_ReadReg(R15 (PC))  returns 0x20000000 (0000ms, 2056ms total)
T1094 224:802 JLINK_ClrBPEx(BPHandle = 0x00000004)  returns 0x00 (0000ms, 2056ms total)
T1094 224:802 JLINK_ReadReg(R0)  returns 0x00000000 (0000ms, 2056ms total)
T1094 224:803 JLINK_WriteMem(0x20000164, 0x029C Bytes, ...) - Data: 08 72 00 20 65 01 00 08 9B 22 00 08 F3 20 00 08 ... -- CPU_WriteMem(668 bytes @ 0x20000164)  returns 0x29C (0003ms, 2059ms total)
T1094 224:806 JLINK_WriteMem(0x20000400, 0x0164 Bytes, ...) - Data: 98 47 10 34 AC 42 F6 D3 FF F7 58 FF BC 45 00 08 ... -- CPU_WriteMem(356 bytes @ 0x20000400)  returns 0x164 (0002ms, 2061ms total)
T1094 224:808 JLINK_WriteReg(R0, 0x08000000)  returns 0x00 (0000ms, 2061ms total)
T1094 224:808 JLINK_WriteReg(R1, 0x00000400)  returns 0x00 (0000ms, 2061ms total)
T1094 224:808 JLINK_WriteReg(R2, 0x20000164)  returns 0x00 (0000ms, 2061ms total)
T1094 224:808 JLINK_WriteReg(R3, 0x00000000)  returns 0x00 (0000ms, 2061ms total)
T1094 224:808 JLINK_WriteReg(R4, 0x00000000)  returns 0x00 (0001ms, 2062ms total)
T1094 224:809 JLINK_WriteReg(R5, 0x00000000)  returns 0x00 (0000ms, 2062ms total)
T1094 224:809 JLINK_WriteReg(R6, 0x00000000)  returns 0x00 (0000ms, 2062ms total)
T1094 224:809 JLINK_WriteReg(R7, 0x00000000)  returns 0x00 (0000ms, 2062ms total)
T1094 224:809 JLINK_WriteReg(R8, 0x00000000)  returns 0x00 (0000ms, 2062ms total)
T1094 224:809 JLINK_WriteReg(R9, 0x20000160)  returns 0x00 (0000ms, 2062ms total)
T1094 224:809 JLINK_WriteReg(R10, 0x00000000)  returns 0x00 (0000ms, 2062ms total)
T1094 224:809 JLINK_WriteReg(R11, 0x00000000)  returns 0x00 (0000ms, 2062ms total)
T1094 224:809 JLINK_WriteReg(R12, 0x00000000)  returns 0x00 (0000ms, 2062ms total)
T1094 224:809 JLINK_WriteReg(R13 (SP), 0x20001000)  returns 0x00 (0000ms, 2062ms total)
T1094 224:809 JLINK_WriteReg(R14, 0x20000001)  returns 0x00 (0000ms, 2062ms total)
T1094 224:809 JLINK_WriteReg(R15 (PC), 0x200000F4)  returns 0x00 (0001ms, 2063ms total)
T1094 224:810 JLINK_WriteReg(XPSR, 0x01000000)  returns 0x00 (0000ms, 2063ms total)
T1094 224:810 JLINK_WriteReg(MSP, 0x20001000)  returns 0x00 (0000ms, 2063ms total)
T1094 224:810 JLINK_WriteReg(PSP, 0x20001000)  returns 0x00 (0000ms, 2063ms total)
T1094 224:810 JLINK_WriteReg(CFBP, 0x00000000)  returns 0x00 (0000ms, 2063ms total)
T1094 224:810 JLINK_SetBPEx(Addr = 0x20000000, Type = 0xFFFFFFF2)  returns 0x00000005 (0000ms, 2063ms total)
T1094 224:810 JLINK_Go() -- CPU_ReadMem(4 bytes @ 0xE0001000) (0003ms, 2066ms total)
T1094 224:813 JLINK_IsHalted()  returns FALSE (0000ms, 2066ms total)
T1094 224:843 JLINK_IsHalted()  returns FALSE (0000ms, 2066ms total)
T1094 224:845 JLINK_IsHalted() -- CPU_ReadMem(2 bytes @ 0x20000000)  returns TRUE (0003ms, 2069ms total)
T1094 224:848 JLINK_ReadReg(R15 (PC))  returns 0x20000000 (0000ms, 2066ms total)
T1094 224:848 JLINK_ClrBPEx(BPHandle = 0x00000005)  returns 0x00 (0000ms, 2066ms total)
T1094 224:848 JLINK_ReadReg(R0)  returns 0x00000000 (0000ms, 2066ms total)
T1094 224:850 JLINK_WriteMem(0x20000164, 0x029C Bytes, ...) - Data: 00 F0 D2 F8 00 28 3B D1 1F 49 C8 61 00 F0 EC FA ... -- CPU_WriteMem(668 bytes @ 0x20000164)  returns 0x29C (0003ms, 2069ms total)
T1094 224:853 JLINK_WriteMem(0x20000400, 0x0164 Bytes, ...) - Data: 4C 69 00 EB C4 04 C4 F8 40 32 0C 89 CB 68 64 F3 ... -- CPU_WriteMem(356 bytes @ 0x20000400)  returns 0x164 (0002ms, 2071ms total)
T1094 224:855 JLINK_WriteReg(R0, 0x08000400)  returns 0x00 (0000ms, 2071ms total)
T1094 224:855 JLINK_WriteReg(R1, 0x00000400)  returns 0x00 (0000ms, 2071ms total)
T1094 224:855 JLINK_WriteReg(R2, 0x20000164)  returns 0x00 (0000ms, 2071ms total)
T1094 224:855 JLINK_WriteReg(R3, 0x00000000)  returns 0x00 (0000ms, 2071ms total)
T1094 224:855 JLINK_WriteReg(R4, 0x00000000)  returns 0x00 (0000ms, 2071ms total)
T1094 224:855 JLINK_WriteReg(R5, 0x00000000)  returns 0x00 (0001ms, 2072ms total)
T1094 224:856 JLINK_WriteReg(R6, 0x00000000)  returns 0x00 (0000ms, 2072ms total)
T1094 224:856 JLINK_WriteReg(R7, 0x00000000)  returns 0x00 (0000ms, 2072ms total)
T1094 224:856 JLINK_WriteReg(R8, 0x00000000)  returns 0x00 (0000ms, 2072ms total)
T1094 224:856 JLINK_WriteReg(R9, 0x20000160)  returns 0x00 (0000ms, 2072ms total)
T1094 224:856 JLINK_WriteReg(R10, 0x00000000)  returns 0x00 (0000ms, 2072ms total)
T1094 224:856 JLINK_WriteReg(R11, 0x00000000)  returns 0x00 (0000ms, 2072ms total)
T1094 224:856 JLINK_WriteReg(R12, 0x00000000)  returns 0x00 (0000ms, 2072ms total)
T1094 224:856 JLINK_WriteReg(R13 (SP), 0x20001000)  returns 0x00 (0000ms, 2072ms total)
T1094 224:856 JLINK_WriteReg(R14, 0x20000001)  returns 0x00 (0000ms, 2072ms total)
T1094 224:856 JLINK_WriteReg(R15 (PC), 0x200000F4)  returns 0x00 (0000ms, 2072ms total)
T1094 224:856 JLINK_WriteReg(XPSR, 0x01000000)  returns 0x00 (0001ms, 2073ms total)
T1094 224:857 JLINK_WriteReg(MSP, 0x20001000)  returns 0x00 (0000ms, 2073ms total)
T1094 224:857 JLINK_WriteReg(PSP, 0x20001000)  returns 0x00 (0000ms, 2073ms total)
T1094 224:857 JLINK_WriteReg(CFBP, 0x00000000)  returns 0x00 (0000ms, 2073ms total)
T1094 224:857 JLINK_SetBPEx(Addr = 0x20000000, Type = 0xFFFFFFF2)  returns 0x00000006 (0000ms, 2073ms total)
T1094 224:857 JLINK_Go() -- CPU_ReadMem(4 bytes @ 0xE0001000) (0003ms, 2076ms total)
T1094 224:860 JLINK_IsHalted()  returns FALSE (0000ms, 2076ms total)
T1094 224:866 JLINK_IsHalted()  returns FALSE (0000ms, 2076ms total)
T1094 224:868 JLINK_IsHalted()  returns FALSE (0000ms, 2076ms total)
T1094 224:870 JLINK_IsHalted()  returns FALSE (0000ms, 2076ms total)
T1094 224:872 JLINK_IsHalted()  returns FALSE (0000ms, 2076ms total)
T1094 224:877 JLINK_IsHalted()  returns FALSE (0000ms, 2076ms total)
T1094 224:879 JLINK_IsHalted()  returns FALSE (0000ms, 2076ms total)
T1094 224:881 JLINK_IsHalted()  returns FALSE (0000ms, 2076ms total)
T1094 224:885 JLINK_IsHalted()  returns FALSE (0000ms, 2076ms total)
T1094 224:887 JLINK_IsHalted()  returns FALSE (0000ms, 2076ms total)
T1094 224:889 JLINK_IsHalted()  returns FALSE (0000ms, 2076ms total)
T1094 224:893 JLINK_IsHalted() -- CPU_ReadMem(2 bytes @ 0x20000000)  returns TRUE (0002ms, 2078ms total)
T1094 224:895 JLINK_ReadReg(R15 (PC))  returns 0x20000000 (0000ms, 2076ms total)
T1094 224:895 JLINK_ClrBPEx(BPHandle = 0x00000006)  returns 0x00 (0000ms, 2076ms total)
T1094 224:895 JLINK_ReadReg(R0)  returns 0x00000000 (0000ms, 2076ms total)
T1094 224:896 JLINK_WriteMem(0x20000164, 0x029C Bytes, ...) - Data: 80 01 C0 E7 41 F0 40 01 C5 E7 41 F0 20 01 CA E7 ... -- CPU_WriteMem(668 bytes @ 0x20000164)  returns 0x29C (0003ms, 2079ms total)
T1094 224:899 JLINK_WriteMem(0x20000400, 0x0164 Bytes, ...) - Data: 89 07 03 D5 20 7C FF F7 01 FD 78 BB 21 78 1D 4E ... -- CPU_WriteMem(356 bytes @ 0x20000400)  returns 0x164 (0001ms, 2080ms total)
T1094 224:901 JLINK_WriteReg(R0, 0x08000800)  returns 0x00 (0000ms, 2081ms total)
T1094 224:901 JLINK_WriteReg(R1, 0x00000400)  returns 0x00 (0000ms, 2081ms total)
T1094 224:901 JLINK_WriteReg(R2, 0x20000164)  returns 0x00 (0000ms, 2081ms total)
T1094 224:901 JLINK_WriteReg(R3, 0x00000000)  returns 0x00 (0000ms, 2081ms total)
T1094 224:901 JLINK_WriteReg(R4, 0x00000000)  returns 0x00 (0000ms, 2081ms total)
T1094 224:901 JLINK_WriteReg(R5, 0x00000000)  returns 0x00 (0000ms, 2081ms total)
T1094 224:901 JLINK_WriteReg(R6, 0x00000000)  returns 0x00 (0000ms, 2081ms total)
T1094 224:901 JLINK_WriteReg(R7, 0x00000000)  returns 0x00 (0000ms, 2081ms total)
T1094 224:901 JLINK_WriteReg(R8, 0x00000000)  returns 0x00 (0000ms, 2081ms total)
T1094 224:901 JLINK_WriteReg(R9, 0x20000160)  returns 0x00 (0000ms, 2081ms total)
T1094 224:901 JLINK_WriteReg(R10, 0x00000000)  returns 0x00 (0000ms, 2081ms total)
T1094 224:901 JLINK_WriteReg(R11, 0x00000000)  returns 0x00 (0000ms, 2081ms total)
T1094 224:901 JLINK_WriteReg(R12, 0x00000000)  returns 0x00 (0000ms, 2081ms total)
T1094 224:901 JLINK_WriteReg(R13 (SP), 0x20001000)  returns 0x00 (0000ms, 2081ms total)
T1094 224:901 JLINK_WriteReg(R14, 0x20000001)  returns 0x00 (0000ms, 2081ms total)
T1094 224:901 JLINK_WriteReg(R15 (PC), 0x200000F4)  returns 0x00 (0000ms, 2081ms total)
T1094 224:901 JLINK_WriteReg(XPSR, 0x01000000)  returns 0x00 (0000ms, 2081ms total)
T1094 224:901 JLINK_WriteReg(MSP, 0x20001000)  returns 0x00 (0000ms, 2081ms total)
T1094 224:901 JLINK_WriteReg(PSP, 0x20001000)  returns 0x00 (0000ms, 2081ms total)
T1094 224:901 JLINK_WriteReg(CFBP, 0x00000000)  returns 0x00 (0000ms, 2081ms total)
T1094 224:901 JLINK_SetBPEx(Addr = 0x20000000, Type = 0xFFFFFFF2)  returns 0x00000007 (0000ms, 2081ms total)
T1094 224:901 JLINK_Go() -- CPU_ReadMem(4 bytes @ 0xE0001000) (0003ms, 2084ms total)
T1094 224:904 JLINK_IsHalted()  returns FALSE (0001ms, 2085ms total)
T1094 224:913 JLINK_IsHalted()  returns FALSE (0000ms, 2084ms total)
T1094 224:915 JLINK_IsHalted()  returns FALSE (0000ms, 2084ms total)
T1094 224:919 JLINK_IsHalted()  returns FALSE (0000ms, 2084ms total)
T1094 224:921 JLINK_IsHalted()  returns FALSE (0000ms, 2084ms total)
T1094 224:923 JLINK_IsHalted()  returns FALSE (0000ms, 2084ms total)
T1094 224:928 JLINK_IsHalted()  returns FALSE (0000ms, 2084ms total)
T1094 224:930 JLINK_IsHalted()  returns FALSE (0000ms, 2084ms total)
T1094 224:934 JLINK_IsHalted()  returns FALSE (0000ms, 2084ms total)
T1094 224:936 JLINK_IsHalted() -- CPU_ReadMem(2 bytes @ 0x20000000)  returns TRUE (0002ms, 2086ms total)
T1094 224:938 JLINK_ReadReg(R15 (PC))  returns 0x20000000 (0000ms, 2084ms total)
T1094 224:938 JLINK_ClrBPEx(BPHandle = 0x00000007)  returns 0x00 (0000ms, 2084ms total)
T1094 224:938 JLINK_ReadReg(R0)  returns 0x00000000 (0000ms, 2084ms total)
T1094 224:939 JLINK_WriteMem(0x20000164, 0x029C Bytes, ...) - Data: 07 D5 05 4A 4A 60 05 4A 4A 60 09 69 09 06 00 D5 ... -- CPU_WriteMem(668 bytes @ 0x20000164)  returns 0x29C (0003ms, 2087ms total)
T1094 224:942 JLINK_WriteMem(0x20000400, 0x0164 Bytes, ...) - Data: 01 01 00 91 C1 69 41 F0 80 51 C1 61 C0 69 00 F0 ... -- CPU_WriteMem(356 bytes @ 0x20000400)  returns 0x164 (0002ms, 2089ms total)
T1094 224:944 JLINK_WriteReg(R0, 0x08000C00)  returns 0x00 (0000ms, 2089ms total)
T1094 224:944 JLINK_WriteReg(R1, 0x00000400)  returns 0x00 (0000ms, 2089ms total)
T1094 224:944 JLINK_WriteReg(R2, 0x20000164)  returns 0x00 (0000ms, 2089ms total)
T1094 224:944 JLINK_WriteReg(R3, 0x00000000)  returns 0x00 (0000ms, 2089ms total)
T1094 224:944 JLINK_WriteReg(R4, 0x00000000)  returns 0x00 (0000ms, 2089ms total)
T1094 224:944 JLINK_WriteReg(R5, 0x00000000)  returns 0x00 (0000ms, 2089ms total)
T1094 224:944 JLINK_WriteReg(R6, 0x00000000)  returns 0x00 (0000ms, 2089ms total)
T1094 224:944 JLINK_WriteReg(R7, 0x00000000)  returns 0x00 (0000ms, 2089ms total)
T1094 224:944 JLINK_WriteReg(R8, 0x00000000)  returns 0x00 (0001ms, 2090ms total)
T1094 224:945 JLINK_WriteReg(R9, 0x20000160)  returns 0x00 (0000ms, 2090ms total)
T1094 224:945 JLINK_WriteReg(R10, 0x00000000)  returns 0x00 (0000ms, 2090ms total)
T1094 224:945 JLINK_WriteReg(R11, 0x00000000)  returns 0x00 (0000ms, 2090ms total)
T1094 224:945 JLINK_WriteReg(R12, 0x00000000)  returns 0x00 (0000ms, 2090ms total)
T1094 224:945 JLINK_WriteReg(R13 (SP), 0x20001000)  returns 0x00 (0000ms, 2090ms total)
T1094 224:945 JLINK_WriteReg(R14, 0x20000001)  returns 0x00 (0000ms, 2090ms total)
T1094 224:945 JLINK_WriteReg(R15 (PC), 0x200000F4)  returns 0x00 (0000ms, 2090ms total)
T1094 224:945 JLINK_WriteReg(XPSR, 0x01000000)  returns 0x00 (0000ms, 2090ms total)
T1094 224:945 JLINK_WriteReg(MSP, 0x20001000)  returns 0x00 (0000ms, 2090ms total)
T1094 224:945 JLINK_WriteReg(PSP, 0x20001000)  returns 0x00 (0000ms, 2090ms total)
T1094 224:945 JLINK_WriteReg(CFBP, 0x00000000)  returns 0x00 (0000ms, 2090ms total)
T1094 224:945 JLINK_SetBPEx(Addr = 0x20000000, Type = 0xFFFFFFF2)  returns 0x00000008 (0000ms, 2090ms total)
T1094 224:945 JLINK_Go() -- CPU_ReadMem(4 bytes @ 0xE0001000) (0003ms, 2093ms total)
T1094 224:948 JLINK_IsHalted()  returns FALSE (0000ms, 2093ms total)
T1094 224:953 JLINK_IsHalted()  returns FALSE (0000ms, 2093ms total)
T1094 224:955 JLINK_IsHalted()  returns FALSE (0000ms, 2093ms total)
T1094 224:957 JLINK_IsHalted()  returns FALSE (0000ms, 2093ms total)
T1094 224:959 JLINK_IsHalted()  returns FALSE (0000ms, 2093ms total)
T1094 224:963 JLINK_IsHalted()  returns FALSE (0000ms, 2093ms total)
T1094 224:965 JLINK_IsHalted()  returns FALSE (0000ms, 2093ms total)
T1094 224:967 JLINK_IsHalted()  returns FALSE (0000ms, 2093ms total)
T1094 224:971 JLINK_IsHalted()  returns FALSE (0000ms, 2093ms total)
T1094 224:973 JLINK_IsHalted()  returns FALSE (0000ms, 2093ms total)
T1094 224:975 JLINK_IsHalted()  returns FALSE (0000ms, 2093ms total)
T1094 224:977 JLINK_IsHalted()  returns FALSE (0000ms, 2093ms total)
T1094 224:979 JLINK_IsHalted() -- CPU_ReadMem(2 bytes @ 0x20000000)  returns TRUE (0002ms, 2095ms total)
T1094 224:981 JLINK_ReadReg(R15 (PC))  returns 0x20000000 (0000ms, 2093ms total)
T1094 224:981 JLINK_ClrBPEx(BPHandle = 0x00000008)  returns 0x00 (0000ms, 2093ms total)
T1094 224:981 JLINK_ReadReg(R0)  returns 0x00000000 (0001ms, 2094ms total)
T1094 224:983 JLINK_WriteMem(0x20000164, 0x029C Bytes, ...) - Data: 3D 20 3C 31 03 E0 81 F8 FD 51 01 F5 FE 71 08 70 ... -- CPU_WriteMem(668 bytes @ 0x20000164)  returns 0x29C (0002ms, 2096ms total)
T1094 224:986 JLINK_WriteMem(0x20000400, 0x0164 Bytes, ...) - Data: 08 0B 20 46 00 F0 4F FA 05 EB 46 10 C0 F8 08 BB ... -- CPU_WriteMem(356 bytes @ 0x20000400)  returns 0x164 (0001ms, 2097ms total)
T1094 224:988 JLINK_WriteReg(R0, 0x08001000)  returns 0x00 (0000ms, 2098ms total)
T1094 224:988 JLINK_WriteReg(R1, 0x00000400)  returns 0x00 (0000ms, 2098ms total)
T1094 224:988 JLINK_WriteReg(R2, 0x20000164)  returns 0x00 (0000ms, 2098ms total)
T1094 224:988 JLINK_WriteReg(R3, 0x00000000)  returns 0x00 (0000ms, 2098ms total)
T1094 224:988 JLINK_WriteReg(R4, 0x00000000)  returns 0x00 (0000ms, 2098ms total)
T1094 224:988 JLINK_WriteReg(R5, 0x00000000)  returns 0x00 (0000ms, 2098ms total)
T1094 224:988 JLINK_WriteReg(R6, 0x00000000)  returns 0x00 (0000ms, 2098ms total)
T1094 224:988 JLINK_WriteReg(R7, 0x00000000)  returns 0x00 (0000ms, 2098ms total)
T1094 224:988 JLINK_WriteReg(R8, 0x00000000)  returns 0x00 (0000ms, 2098ms total)
T1094 224:988 JLINK_WriteReg(R9, 0x20000160)  returns 0x00 (0000ms, 2098ms total)
T1094 224:988 JLINK_WriteReg(R10, 0x00000000)  returns 0x00 (0000ms, 2098ms total)
T1094 224:988 JLINK_WriteReg(R11, 0x00000000)  returns 0x00 (0000ms, 2098ms total)
T1094 224:988 JLINK_WriteReg(R12, 0x00000000)  returns 0x00 (0000ms, 2098ms total)
T1094 224:988 JLINK_WriteReg(R13 (SP), 0x20001000)  returns 0x00 (0000ms, 2098ms total)
T1094 224:988 JLINK_WriteReg(R14, 0x20000001)  returns 0x00 (0000ms, 2098ms total)
T1094 224:988 JLINK_WriteReg(R15 (PC), 0x200000F4)  returns 0x00 (0000ms, 2098ms total)
T1094 224:988 JLINK_WriteReg(XPSR, 0x01000000)  returns 0x00 (0000ms, 2098ms total)
T1094 224:988 JLINK_WriteReg(MSP, 0x20001000)  returns 0x00 (0000ms, 2098ms total)
T1094 224:988 JLINK_WriteReg(PSP, 0x20001000)  returns 0x00 (0000ms, 2098ms total)
T1094 224:988 JLINK_WriteReg(CFBP, 0x00000000)  returns 0x00 (0000ms, 2098ms total)
T1094 224:988 JLINK_SetBPEx(Addr = 0x20000000, Type = 0xFFFFFFF2)  returns 0x00000009 (0001ms, 2099ms total)
T1094 224:989 JLINK_Go() -- CPU_ReadMem(4 bytes @ 0xE0001000) (0002ms, 2101ms total)
T1094 224:991 JLINK_IsHalted()  returns FALSE (0001ms, 2102ms total)
T1094 224:996 JLINK_IsHalted()  returns FALSE (0000ms, 2101ms total)
T1094 224:998 JLINK_IsHalted()  returns FALSE (0000ms, 2101ms total)
T1094 225:000 JLINK_IsHalted()  returns FALSE (0000ms, 2101ms total)
T1094 225:002 JLINK_IsHalted()  returns FALSE (0000ms, 2101ms total)
T1094 225:006 JLINK_IsHalted()  returns FALSE (0000ms, 2101ms total)
T1094 225:008 JLINK_IsHalted()  returns FALSE (0000ms, 2101ms total)
T1094 225:010 JLINK_IsHalted()  returns FALSE (0000ms, 2101ms total)
T1094 225:014 JLINK_IsHalted()  returns FALSE (0000ms, 2101ms total)
T1094 225:016 JLINK_IsHalted()  returns FALSE (0000ms, 2101ms total)
T1094 225:018 JLINK_IsHalted()  returns FALSE (0000ms, 2101ms total)
T1094 225:020 JLINK_IsHalted()  returns FALSE (0000ms, 2101ms total)
T1094 225:022 JLINK_IsHalted() -- CPU_ReadMem(2 bytes @ 0x20000000)  returns TRUE (0002ms, 2103ms total)
T1094 225:024 JLINK_ReadReg(R15 (PC))  returns 0x20000000 (0000ms, 2101ms total)
T1094 225:024 JLINK_ClrBPEx(BPHandle = 0x00000009)  returns 0x00 (0000ms, 2101ms total)
T1094 225:024 JLINK_ReadReg(R0)  returns 0x00000000 (0000ms, 2101ms total)
T1094 225:025 JLINK_WriteMem(0x20000164, 0x029C Bytes, ...) - Data: C0 F8 08 29 D0 F8 00 39 23 F4 00 13 C0 F8 00 39 ... -- CPU_WriteMem(668 bytes @ 0x20000164)  returns 0x29C (0003ms, 2104ms total)
T1094 225:028 JLINK_WriteMem(0x20000400, 0x0164 Bytes, ...) - Data: 10 B1 84 F8 BD 63 A2 E7 84 F8 38 50 84 F8 BD 73 ... -- CPU_WriteMem(356 bytes @ 0x20000400)  returns 0x164 (0002ms, 2106ms total)
T1094 225:030 JLINK_WriteReg(R0, 0x08001400)  returns 0x00 (0000ms, 2106ms total)
T1094 225:030 JLINK_WriteReg(R1, 0x00000400)  returns 0x00 (0000ms, 2106ms total)
T1094 225:030 JLINK_WriteReg(R2, 0x20000164)  returns 0x00 (0001ms, 2107ms total)
T1094 225:031 JLINK_WriteReg(R3, 0x00000000)  returns 0x00 (0000ms, 2107ms total)
T1094 225:031 JLINK_WriteReg(R4, 0x00000000)  returns 0x00 (0000ms, 2107ms total)
T1094 225:031 JLINK_WriteReg(R5, 0x00000000)  returns 0x00 (0000ms, 2107ms total)
T1094 225:031 JLINK_WriteReg(R6, 0x00000000)  returns 0x00 (0000ms, 2107ms total)
T1094 225:031 JLINK_WriteReg(R7, 0x00000000)  returns 0x00 (0000ms, 2107ms total)
T1094 225:031 JLINK_WriteReg(R8, 0x00000000)  returns 0x00 (0000ms, 2107ms total)
T1094 225:031 JLINK_WriteReg(R9, 0x20000160)  returns 0x00 (0000ms, 2107ms total)
T1094 225:031 JLINK_WriteReg(R10, 0x00000000)  returns 0x00 (0000ms, 2107ms total)
T1094 225:031 JLINK_WriteReg(R11, 0x00000000)  returns 0x00 (0000ms, 2107ms total)
T1094 225:031 JLINK_WriteReg(R12, 0x00000000)  returns 0x00 (0000ms, 2107ms total)
T1094 225:031 JLINK_WriteReg(R13 (SP), 0x20001000)  returns 0x00 (0000ms, 2107ms total)
T1094 225:031 JLINK_WriteReg(R14, 0x20000001)  returns 0x00 (0000ms, 2107ms total)
T1094 225:031 JLINK_WriteReg(R15 (PC), 0x200000F4)  returns 0x00 (0000ms, 2107ms total)
T1094 225:031 JLINK_WriteReg(XPSR, 0x01000000)  returns 0x00 (0000ms, 2107ms total)
T1094 225:031 JLINK_WriteReg(MSP, 0x20001000)  returns 0x00 (0000ms, 2107ms total)
T1094 225:031 JLINK_WriteReg(PSP, 0x20001000)  returns 0x00 (0000ms, 2107ms total)
T1094 225:031 JLINK_WriteReg(CFBP, 0x00000000)  returns 0x00 (0000ms, 2107ms total)
T1094 225:031 JLINK_SetBPEx(Addr = 0x20000000, Type = 0xFFFFFFF2)  returns 0x0000000A (0000ms, 2107ms total)
T1094 225:031 JLINK_Go() -- CPU_ReadMem(4 bytes @ 0xE0001000) (0003ms, 2110ms total)
T1094 225:034 JLINK_IsHalted()  returns FALSE (0000ms, 2110ms total)
T1094 225:036 JLINK_IsHalted()  returns FALSE (0000ms, 2110ms total)
T1094 225:038 JLINK_IsHalted()  returns FALSE (0000ms, 2110ms total)
T1094 225:040 JLINK_IsHalted()  returns FALSE (0000ms, 2110ms total)
T1094 225:042 JLINK_IsHalted()  returns FALSE (0000ms, 2110ms total)
T1094 225:044 JLINK_IsHalted()  returns FALSE (0000ms, 2110ms total)
T1094 225:046 JLINK_IsHalted()  returns FALSE (0000ms, 2110ms total)
T1094 225:048 JLINK_IsHalted()  returns FALSE (0000ms, 2110ms total)
T1094 225:050 JLINK_IsHalted()  returns FALSE (0000ms, 2110ms total)
T1094 225:052 JLINK_IsHalted()  returns FALSE (0000ms, 2110ms total)
T1094 225:054 JLINK_IsHalted()  returns FALSE (0000ms, 2110ms total)
T1094 225:056 JLINK_IsHalted()  returns FALSE (0000ms, 2110ms total)
T1094 225:058 JLINK_IsHalted()  returns FALSE (0000ms, 2110ms total)
T1094 225:060 JLINK_IsHalted()  returns FALSE (0000ms, 2110ms total)
T1094 225:062 JLINK_IsHalted()  returns FALSE (0000ms, 2110ms total)
T1094 225:064 JLINK_IsHalted()  returns FALSE (0000ms, 2110ms total)
T1094 225:066 JLINK_IsHalted() -- CPU_ReadMem(2 bytes @ 0x20000000)  returns TRUE (0002ms, 2112ms total)
T1094 225:068 JLINK_ReadReg(R15 (PC))  returns 0x20000000 (0000ms, 2110ms total)
T1094 225:068 JLINK_ClrBPEx(BPHandle = 0x0000000A)  returns 0x00 (0000ms, 2110ms total)
T1094 225:068 JLINK_ReadReg(R0)  returns 0x00000000 (0000ms, 2110ms total)
T1094 225:069 JLINK_WriteMem(0x20000164, 0x029C Bytes, ...) - Data: 01 68 80 46 41 F4 80 71 01 60 FF F7 FF FA 07 46 ... -- CPU_WriteMem(668 bytes @ 0x20000164)  returns 0x29C (0003ms, 2113ms total)
T1094 225:072 JLINK_WriteMem(0x20000400, 0x0164 Bytes, ...) - Data: 0F C9 8D E8 0F 00 27 48 41 68 01 F0 0C 02 04 2A ... -- CPU_WriteMem(356 bytes @ 0x20000400)  returns 0x164 (0002ms, 2115ms total)
T1094 225:074 JLINK_WriteReg(R0, 0x08001800)  returns 0x00 (0000ms, 2115ms total)
T1094 225:074 JLINK_WriteReg(R1, 0x00000400)  returns 0x00 (0000ms, 2115ms total)
T1094 225:074 JLINK_WriteReg(R2, 0x20000164)  returns 0x00 (0000ms, 2115ms total)
T1094 225:074 JLINK_WriteReg(R3, 0x00000000)  returns 0x00 (0000ms, 2115ms total)
T1094 225:074 JLINK_WriteReg(R4, 0x00000000)  returns 0x00 (0000ms, 2115ms total)
T1094 225:074 JLINK_WriteReg(R5, 0x00000000)  returns 0x00 (0000ms, 2115ms total)
T1094 225:074 JLINK_WriteReg(R6, 0x00000000)  returns 0x00 (0000ms, 2115ms total)
T1094 225:074 JLINK_WriteReg(R7, 0x00000000)  returns 0x00 (0000ms, 2115ms total)
T1094 225:074 JLINK_WriteReg(R8, 0x00000000)  returns 0x00 (0000ms, 2115ms total)
T1094 225:074 JLINK_WriteReg(R9, 0x20000160)  returns 0x00 (0000ms, 2115ms total)
T1094 225:074 JLINK_WriteReg(R10, 0x00000000)  returns 0x00 (0000ms, 2115ms total)
T1094 225:075 JLINK_WriteReg(R11, 0x00000000)  returns 0x00 (0000ms, 2116ms total)
T1094 225:075 JLINK_WriteReg(R12, 0x00000000)  returns 0x00 (0000ms, 2116ms total)
T1094 225:075 JLINK_WriteReg(R13 (SP), 0x20001000)  returns 0x00 (0000ms, 2116ms total)
T1094 225:075 JLINK_WriteReg(R14, 0x20000001)  returns 0x00 (0000ms, 2116ms total)
T1094 225:075 JLINK_WriteReg(R15 (PC), 0x200000F4)  returns 0x00 (0000ms, 2116ms total)
T1094 225:075 JLINK_WriteReg(XPSR, 0x01000000)  returns 0x00 (0000ms, 2116ms total)
T1094 225:075 JLINK_WriteReg(MSP, 0x20001000)  returns 0x00 (0000ms, 2116ms total)
T1094 225:075 JLINK_WriteReg(PSP, 0x20001000)  returns 0x00 (0000ms, 2116ms total)
T1094 225:075 JLINK_WriteReg(CFBP, 0x00000000)  returns 0x00 (0000ms, 2116ms total)
T1094 225:075 JLINK_SetBPEx(Addr = 0x20000000, Type = 0xFFFFFFF2)  returns 0x0000000B (0000ms, 2116ms total)
T1094 225:075 JLINK_Go() -- CPU_ReadMem(4 bytes @ 0xE0001000) (0003ms, 2119ms total)
T1094 225:078 JLINK_IsHalted()  returns FALSE (0000ms, 2119ms total)
T1094 225:084 JLINK_IsHalted()  returns FALSE (0000ms, 2119ms total)
T1094 225:086 JLINK_IsHalted()  returns FALSE (0000ms, 2119ms total)
T1094 225:088 JLINK_IsHalted()  returns FALSE (0000ms, 2119ms total)
T1094 225:090 JLINK_IsHalted()  returns FALSE (0000ms, 2119ms total)
T1094 225:092 JLINK_IsHalted()  returns FALSE (0000ms, 2119ms total)
T1094 225:094 JLINK_IsHalted()  returns FALSE (0000ms, 2119ms total)
T1094 225:096 JLINK_IsHalted()  returns FALSE (0000ms, 2119ms total)
T1094 225:098 JLINK_IsHalted()  returns FALSE (0000ms, 2119ms total)
T1094 225:100 JLINK_IsHalted()  returns FALSE (0000ms, 2119ms total)
T1094 225:102 JLINK_IsHalted()  returns FALSE (0000ms, 2119ms total)
T1094 225:104 JLINK_IsHalted()  returns FALSE (0000ms, 2119ms total)
T1094 225:105 JLINK_IsHalted()  returns FALSE (0000ms, 2119ms total)
T1094 225:107 JLINK_IsHalted()  returns FALSE (0000ms, 2119ms total)
T1094 225:109 JLINK_IsHalted() -- CPU_ReadMem(2 bytes @ 0x20000000)  returns TRUE (0002ms, 2121ms total)
T1094 225:111 JLINK_ReadReg(R15 (PC))  returns 0x20000000 (0000ms, 2119ms total)
T1094 225:111 JLINK_ClrBPEx(BPHandle = 0x0000000B)  returns 0x00 (0000ms, 2119ms total)
T1094 225:111 JLINK_ReadReg(R0)  returns 0x00000000 (0000ms, 2119ms total)
T1094 225:112 JLINK_WriteMem(0x20000164, 0x029C Bytes, ...) - Data: 00 07 3A D5 68 68 10 F0 0C 0F 07 D0 68 68 C0 F3 ... -- CPU_WriteMem(668 bytes @ 0x20000164)  returns 0x29C (0003ms, 2122ms total)
T1094 225:115 JLINK_WriteMem(0x20000400, 0x0164 Bytes, ...) - Data: 08 43 E8 62 E8 6A E1 68 20 F0 0F 00 08 43 E8 62 ... -- CPU_WriteMem(356 bytes @ 0x20000400)  returns 0x164 (0002ms, 2124ms total)
T1094 225:117 JLINK_WriteReg(R0, 0x08001C00)  returns 0x00 (0000ms, 2124ms total)
T1094 225:117 JLINK_WriteReg(R1, 0x00000400)  returns 0x00 (0000ms, 2124ms total)
T1094 225:117 JLINK_WriteReg(R2, 0x20000164)  returns 0x00 (0000ms, 2124ms total)
T1094 225:117 JLINK_WriteReg(R3, 0x00000000)  returns 0x00 (0000ms, 2124ms total)
T1094 225:117 JLINK_WriteReg(R4, 0x00000000)  returns 0x00 (0000ms, 2124ms total)
T1094 225:117 JLINK_WriteReg(R5, 0x00000000)  returns 0x00 (0000ms, 2124ms total)
T1094 225:117 JLINK_WriteReg(R6, 0x00000000)  returns 0x00 (0000ms, 2124ms total)
T1094 225:117 JLINK_WriteReg(R7, 0x00000000)  returns 0x00 (0000ms, 2124ms total)
T1094 225:117 JLINK_WriteReg(R8, 0x00000000)  returns 0x00 (0000ms, 2124ms total)
T1094 225:117 JLINK_WriteReg(R9, 0x20000160)  returns 0x00 (0000ms, 2124ms total)
T1094 225:117 JLINK_WriteReg(R10, 0x00000000)  returns 0x00 (0000ms, 2124ms total)
T1094 225:117 JLINK_WriteReg(R11, 0x00000000)  returns 0x00 (0000ms, 2124ms total)
T1094 225:117 JLINK_WriteReg(R12, 0x00000000)  returns 0x00 (0000ms, 2124ms total)
T1094 225:117 JLINK_WriteReg(R13 (SP), 0x20001000)  returns 0x00 (0000ms, 2124ms total)
T1094 225:117 JLINK_WriteReg(R14, 0x20000001)  returns 0x00 (0000ms, 2124ms total)
T1094 225:117 JLINK_WriteReg(R15 (PC), 0x200000F4)  returns 0x00 (0001ms, 2125ms total)
T1094 225:118 JLINK_WriteReg(XPSR, 0x01000000)  returns 0x00 (0000ms, 2125ms total)
T1094 225:118 JLINK_WriteReg(MSP, 0x20001000)  returns 0x00 (0000ms, 2125ms total)
T1094 225:118 JLINK_WriteReg(PSP, 0x20001000)  returns 0x00 (0000ms, 2125ms total)
T1094 225:118 JLINK_WriteReg(CFBP, 0x00000000)  returns 0x00 (0000ms, 2125ms total)
T1094 225:118 JLINK_SetBPEx(Addr = 0x20000000, Type = 0xFFFFFFF2)  returns 0x0000000C (0000ms, 2125ms total)
T1094 225:118 JLINK_Go() -- CPU_ReadMem(4 bytes @ 0xE0001000) (0002ms, 2127ms total)
T1094 225:120 JLINK_IsHalted()  returns FALSE (0000ms, 2127ms total)
T1094 225:125 JLINK_IsHalted()  returns FALSE (0000ms, 2127ms total)
T1094 225:127 JLINK_IsHalted()  returns FALSE (0000ms, 2127ms total)
T1094 225:129 JLINK_IsHalted()  returns FALSE (0000ms, 2127ms total)
T1094 225:131 JLINK_IsHalted()  returns FALSE (0000ms, 2127ms total)
T1094 225:133 JLINK_IsHalted()  returns FALSE (0000ms, 2127ms total)
T1094 225:135 JLINK_IsHalted()  returns FALSE (0000ms, 2127ms total)
T1094 225:144 JLINK_IsHalted()  returns FALSE (0000ms, 2127ms total)
T1094 225:146 JLINK_IsHalted()  returns FALSE (0000ms, 2127ms total)
T1094 225:151 JLINK_IsHalted()  returns FALSE (0000ms, 2127ms total)
T1094 225:153 JLINK_IsHalted() -- CPU_ReadMem(2 bytes @ 0x20000000)  returns TRUE (0002ms, 2129ms total)
T1094 225:155 JLINK_ReadReg(R15 (PC))  returns 0x20000000 (0000ms, 2127ms total)
